
T0658 000:229 SEGGER J-Link V4.50l Log File (0001ms, 0230ms total)
T0658 000:229 DLL Compiled: Jul  9 2012 15:02:49 (0001ms, 0230ms total)
T0658 000:229 Logging started @ 2014-08-24 13:14 (0001ms, 0230ms total)
T0658 000:231 JLINK_SetWarnOutHandler(...) (0000ms, 0230ms total)
T0658 000:231 JLINK_OpenEx(...)
Firmware: J-Link ARM V8 compiled Nov 14 2012 22:34:52
Hardware: V8.00
Feature(s): RDI,FlashDL,FlashBP,JFlash,GDBFULL  returns O.K. (0018ms, 0248ms total)
T0658 000:249 JLINK_SetErrorOutHandler(...) (0000ms, 0248ms total)
T0658 000:249 JLINK_ExecCommand("ProjectFile = "E:\ARM项目\LPC1788控制端_LPC1788\demo\ucGUI移植版本\17882_08_23\1788\uc1788\project\JLinkSettings.ini"", ...)  returns 0x00 (0000ms, 0248ms total)
T0658 000:265 JLINK_ExecCommand("Device = LPC1788", ...)
                JLINK_ExecCommand("map ram 0x10000000 - 0x1000FFFF", ...)  returns 0x00 (0000ms, 0000ms total)
                JLINK_AddMirrorAreaEx(Addr = 0x00000000, Size = 0x00000000) (0000ms, 0000ms total)
              Device "LPC1788" selected (512 KB flash, 64 KB RAM).  returns 0x00 (0009ms, 0257ms total)
T0658 000:274 JLINK_ExecCommand("DisableConnectionTimeout", ...)  returns 0x00 (0000ms, 0257ms total)
T0658 000:274 JLINK_GetHardwareVersion()  returns 0x13880 (0000ms, 0257ms total)
T0658 000:274 JLINK_GetDLLVersion()  returns 45012 (0000ms, 0257ms total)
T0658 000:275 JLINK_GetFirmwareString(...) (0000ms, 0258ms total)
T0658 000:287 JLINK_GetDLLVersion()  returns 45012 (0000ms, 0258ms total)
T0658 000:287 JLINK_GetCompileDateTime() (0000ms, 0258ms total)
T0658 000:292 JLINK_GetFirmwareString(...) (0000ms, 0258ms total)
T0658 000:295 JLINK_GetHardwareVersion()  returns 0x13880 (0000ms, 0258ms total)
T0658 000:304 JLINK_TIF_Select(JLINKARM_TIF_SWD)  returns 0x00 (0003ms, 0261ms total)
T0658 000:307 JLINK_SetSpeed(10000) (0000ms, 0261ms total)
T0658 000:307 JLINK_GetId() >0x108 TIF>Found SWD-DP with ID 0x2BA01477 >0x0D TIF> >0x21 TIF> >0x0D TIF> >0x28 TIF> >0x0D TIF> >0x28 TIF> >0x0D TIF> >0x21 TIF> >0x0D TIF> >0x21 TIF> >0x0D TIF> >0x28 TIF> >0x0D TIF> >0x21 TIF> >0x0D TIF> >0x21 TIF> >0x0D TIF> >0x21 TIF> >0x0D TIF> >0x21 TIF> >0x0D TIF> >0x21 TIF> >0x0D TIF> >0x28 TIF> >0x0D TIF> >0x28 TIF> >0x0D TIF> >0x21 TIF> >0x0D TIF> >0x21 TIF> >0x0D TIF> >0x28 TIF> >0x0D TIF> >0x21 TIF> >0x0D TIF> >0x21 TIF> >0x0D TIF> >0x28 TIF> >0x0D TIF>
 >0x21 TIF> >0x0D TIF> >0x21 TIF> >0x0D TIF> >0x28 TIF> >0x0D TIF> >0x28 TIF> >0x0D TIF> >0x28 TIF> >0x0D TIF> >0x21 TIF> >0x0D TIF> >0x21 TIF> >0x0D TIF> >0x28 TIF> >0x0D TIF> >0x28 TIF> >0x0D TIF> >0x28 TIF> >0x0D TIF> >0x28 TIF> >0x0D TIF> >0x28 TIF> >0x0D TIF> >0x21 TIF> >0x0D TIF> >0x21 TIF> >0x0D TIF> >0x21 TIF>TPIU fitted.ETM fitted. >0x0D TIF> >0x28 TIF> >0x0D TIF> >0x21 TIF> >0x0D TIF> >0x21 TIF> >0x0D TIF> >0x28 TIF> >0x0D TIF> >0x21 TIF> >0x0D TIF> >0x21 TIF>
FPUnit: 6 code (BP) slots and 2 literal slots >0x0D TIF> >0x28 TIF> >0x0D TIF> >0x21 TIF> >0x0D TIF> >0x21 TIF> >0x0D TIF> >0x28 TIF> >0x0D TIF> >0x28 TIF> >0x0D TIF> >0x28 TIF> >0x0D TIF> >0x21 TIF> >0x0D TIF> >0x21 TIF> >0x0D TIF> >0x28 TIF> >0x0D TIF> >0x21 TIF> >0x0D TIF> >0x21 TIF> >0x0D TIF> >0x28 TIF> >0x0D TIF> >0x21 TIF> >0x0D TIF> >0x21 TIF>Found Cortex-M3 r2p0, Little endian. >0x0D TIF> >0x21 TIF>  returns 0x2BA01477 (0073ms, 0334ms total)
T0658 000:380 JLINK_GetDeviceFamily()  returns 3 (0000ms, 0334ms total)
T0658 000:383 JLINK_ReadMem (0xE00FFFF0, 0x0010 Bytes, ...) -- CPU is running -- CPU_ReadMem(16 bytes @ 0xE00FFFF0) -- Data:  0D 00 00 00 10 00 00 00 05 00 00 00 B1 00 00 00  returns 0x00 (0002ms, 0336ms total)
T0658 000:385 JLINK_ReadMem (0xE00FFFD0, 0x0020 Bytes, ...) -- CPU is running -- CPU_ReadMem(32 bytes @ 0xE00FFFD0) -- Data:  00 00 00 00 00 00 00 00 00 00 00 00 00 00 00 00 ...  returns 0x00 (0001ms, 0337ms total)
T0658 000:386 JLINK_ReadMem (0xE00FF000, 0x0018 Bytes, ...) -- CPU is running -- CPU_ReadMem(24 bytes @ 0xE00FF000) -- Data:  03 F0 F0 FF 03 20 F0 FF 03 30 F0 FF 03 10 F0 FF ...  returns 0x00 (0001ms, 0338ms total)
T0658 000:387 JLINK_ReadMemU32(0xE000ED00, 0x0001 Items, ...) -- CPU is running -- CPU_ReadMem(4 bytes @ 0xE000ED00) -- Data:  30 C2 2F 41  returns 0x01 (0000ms, 0338ms total)
T0658 000:388 JLINK_SetResetType(JLINKARM_RESET_TYPE_NORMAL)  returns JLINKARM_RESET_TYPE_HALT_WP (0000ms, 0338ms total)
T0658 000:388 JLINK_Reset() -- CPU is running -- CPU_WriteMem(4 bytes @ 0xE000EDF0) -- CPU is running -- CPU_WriteMem(4 bytes @ 0xE000EDFC) >0x35 TIF> -- CPU is running -- CPU_WriteMem(4 bytes @ 0xE000ED0C) -- CPU is running -- CPU_ReadMem(4 bytes @ 0xE000EDF0) -- CPU is running -- CPU_ReadMem(4 bytes @ 0xE000EDF0) -- CPU is running -- CPU_WriteMem(4 bytes @ 0xE000EDF0) -- CPU is running -- CPU_WriteMem(4 bytes @ 0xE000EDFC) -- CPU is running -- CPU_ReadMem(4 bytes @ 0xE000EDF0)
 -- CPU_WriteMem(4 bytes @ 0xE000EDFC) -- CPU_WriteMem(4 bytes @ 0xE000EDFC) -- CPU_WriteMem(4 bytes @ 0xE000EDFC) -- CPU_WriteMem(4 bytes @ 0xE000EDFC) -- CPU_WriteMem(4 bytes @ 0xE000EDFC) -- CPU_WriteMem(4 bytes @ 0xE0001050) -- CPU_WriteMem(4 bytes @ 0xE0001054) -- CPU_WriteMem(4 bytes @ 0xE0001058) -- CPU_WriteMem(4 bytes @ 0xE000EDFC) -- CPU_WriteMem(4 bytes @ 0xE0001058) -- CPU_ReadMem(4 bytes @ 0x00000004) -- CPU_ReadMem(4 bytes @ 0xE0002000) -- CPU_ReadMem(4 bytes @ 0xE0002008)
 -- CPU_ReadMem(4 bytes @ 0xE000200C) -- CPU_ReadMem(4 bytes @ 0xE0002010) -- CPU_ReadMem(4 bytes @ 0xE0002014) -- CPU_ReadMem(4 bytes @ 0xE0002018) -- CPU_ReadMem(4 bytes @ 0xE000201C) -- CPU_WriteMem(4 bytes @ 0xE0002000) -- CPU_WriteMem(4 bytes @ 0xE0002008) -- CPU_WriteMem(4 bytes @ 0xE000200C) -- CPU_WriteMem(4 bytes @ 0xE0002010) -- CPU_WriteMem(4 bytes @ 0xE0002014) -- CPU_WriteMem(4 bytes @ 0xE0002018) -- CPU_WriteMem(4 bytes @ 0xE000201C)
                JLINK_ReadMemHW(0x400FC040, 0x0004 Bytes, ...) -- CPU_ReadMem(4 bytes @ 0x400FC040) -- Data:  01 00 00 00  returns 0x00 (0001ms, 0001ms total)
               -- MA0 is in flash -- Unmirror addr 0x00000278 -- CPU_WriteMem(4 bytes @ 0xE0002000) -- CPU_WriteMem(4 bytes @ 0xE0002008) -- CPU_WriteMem(4 bytes @ 0xE000200C) -- CPU_WriteMem(4 bytes @ 0xE0002010) -- CPU_WriteMem(4 bytes @ 0xE0002014) -- CPU_WriteMem(4 bytes @ 0xE0002018) -- CPU_WriteMem(4 bytes @ 0xE000201C) -- CPU_WriteMem(4 bytes @ 0xE0002000) (0248ms, 0586ms total)
T0658 000:637 JLINK_Halt()  returns 0x00 (0000ms, 0586ms total)
T0658 000:637 JLINK_IsHalted() -- Unmirror addr 0x00000278  returns TRUE (0000ms, 0586ms total)
T0658 000:637 JLINK_ReadMemU32(0xE000EDF0, 0x0001 Items, ...) -- CPU_ReadMem(4 bytes @ 0xE000EDF0) -- Data:  03 00 03 00  returns 0x01 (0001ms, 0587ms total)
T0658 000:638 JLINK_WriteU32(0xE000EDF0, 0xA05F0003) -- CPU_WriteMem(4 bytes @ 0xE000EDF0) -- Invalidate MA0 status  returns 0x00 (0000ms, 0587ms total)
T0658 000:638 JLINK_WriteU32(0xE000EDFC, 0x01000000) -- CPU_WriteMem(4 bytes @ 0xE000EDFC)  returns 0x00 (0001ms, 0588ms total)
T0658 000:653 JLINK_GetHWStatus(...)  returns 0x00 (0001ms, 0589ms total)
T0658 000:663 JLINK_GetNumBPUnits(Type = 0xFFFFFF00)  returns 0x06 (0000ms, 0589ms total)
T0658 000:663 JLINK_GetNumBPUnits(Type = 0xF0)  returns 0x2000 (0001ms, 0590ms total)
T0658 000:664 JLINK_GetNumWPUnits()  returns 0x04 (0000ms, 0590ms total)
T0658 000:674 JLINK_GetSpeed()  returns 0xFA0 (0000ms, 0590ms total)
T0658 000:681 JLINK_ReadMemU32(0xE000E004, 0x0001 Items, ...) -- CPU_ReadMem(4 bytes @ 0xE000E004) -- Data:  01 00 00 00  returns 0x01 (0001ms, 0591ms total)
T0658 000:682 JLINK_ReadMemU32(0xE000E004, 0x0001 Items, ...) -- CPU_ReadMem(4 bytes @ 0xE000E004) -- Data:  01 00 00 00  returns 0x01 (0001ms, 0592ms total)
T0658 000:683 JLINK_WriteMem(0xE0001000, 0x001C Bytes, ...) -- Data:  01 00 00 00 00 00 00 00 00 00 00 00 00 00 00 00 ... -- CPU_WriteMem(28 bytes @ 0xE0001000)  returns 0x1C (0000ms, 0592ms total)
T0658 000:684 JLINK_ReadMem (0xE0001000, 0x001C Bytes, ...) -- CPU_ReadMem(28 bytes @ 0xE0001000) -- Data:  01 00 00 40 00 00 00 00 00 00 00 00 00 00 00 00 ...  returns 0x00 (0001ms, 0594ms total)
T0658 000:699 JLINK_ReadReg(R0)  returns 0x00000000 (0000ms, 0594ms total)
T0658 000:699 JLINK_ReadReg(R1)  returns 0x00000279 (0000ms, 0594ms total)
T0658 000:699 JLINK_ReadReg(R2)  returns 0x00000000 (0000ms, 0594ms total)
T0658 000:699 JLINK_ReadReg(R3)  returns 0x00000000 (0000ms, 0594ms total)
T0658 000:699 JLINK_ReadReg(R4)  returns 0x3456ABCD (0000ms, 0594ms total)
T0658 000:699 JLINK_ReadReg(R5)  returns 0x3456ABCD (0000ms, 0594ms total)
T0658 000:699 JLINK_ReadReg(R6)  returns 0x12345678 (0000ms, 0594ms total)
T0658 000:699 JLINK_ReadReg(R7)  returns 0x00000000 (0000ms, 0594ms total)
T0658 000:699 JLINK_ReadReg(R8)  returns 0x000000FF (0000ms, 0594ms total)
T0658 000:699 JLINK_ReadReg(R9)  returns 0x00000001 (0001ms, 0595ms total)
T0658 000:700 JLINK_ReadReg(R10)  returns 0xA062F613 (0000ms, 0595ms total)
T0658 000:700 JLINK_ReadReg(R11)  returns 0x000005E7 (0000ms, 0595ms total)
T0658 000:700 JLINK_ReadReg(R12)  returns 0x0003C79D (0000ms, 0595ms total)
T0658 000:700 JLINK_ReadReg(R13)  returns 0x10008010 (0000ms, 0595ms total)
T0658 000:700 JLINK_ReadReg(R14)  returns 0x1FFF0EA5 (0000ms, 0595ms total)
T0658 000:700 JLINK_ReadReg(R15)  returns 0x00000278 (0000ms, 0595ms total)
T0658 000:700 JLINK_ReadReg(XPSR)  returns 0x61000000 (0000ms, 0595ms total)
T0658 000:700 JLINK_ReadReg(MSP)  returns 0x10008010 (0000ms, 0595ms total)
T0658 000:700 JLINK_ReadReg(PSP)  returns 0xA00AACE4 (0000ms, 0595ms total)
T0658 000:700 JLINK_ReadReg(CFBP)  returns 0x00000000 (0000ms, 0595ms total)
T0658 000:763 JLINK_WriteMem(0x4002C140, 0x0004 Bytes, ...) -- Data:  09 00 00 00 -- CPU_WriteMem(4 bytes @ 0x4002C140)  returns 0x04 (0001ms, 0596ms total)
T0658 000:764 JLINK_WriteMem(0x4002C144, 0x0004 Bytes, ...) -- Data:  09 00 00 00 -- CPU_WriteMem(4 bytes @ 0x4002C144)  returns 0x04 (0001ms, 0597ms total)
T0658 000:765 JLINK_WriteMem(0x4002C148, 0x0004 Bytes, ...) -- Data:  09 00 00 00 -- CPU_WriteMem(4 bytes @ 0x4002C148)  returns 0x04 (0000ms, 0597ms total)
T0658 000:765 JLINK_WriteMem(0x4002C150, 0x0004 Bytes, ...) -- Data:  09 00 00 00 -- CPU_WriteMem(4 bytes @ 0x4002C150)  returns 0x04 (0001ms, 0598ms total)
T0658 000:766 JLINK_WriteMem(0x4002C160, 0x0004 Bytes, ...) -- Data:  09 00 00 00 -- CPU_WriteMem(4 bytes @ 0x4002C160)  returns 0x04 (0001ms, 0599ms total)
T0658 000:767 JLINK_WriteMem(0x4002C170, 0x0004 Bytes, ...) -- Data:  09 00 00 00 -- CPU_WriteMem(4 bytes @ 0x4002C170)  returns 0x04 (0001ms, 0600ms total)
T0658 000:768 JLINK_WriteMem(0x4002C174, 0x0004 Bytes, ...) -- Data:  09 00 00 00 -- CPU_WriteMem(4 bytes @ 0x4002C174)  returns 0x04 (0000ms, 0600ms total)
T0658 000:768 JLINK_WriteMem(0x4002C178, 0x0004 Bytes, ...) -- Data:  09 00 00 00 -- CPU_WriteMem(4 bytes @ 0x4002C178)  returns 0x04 (0001ms, 0601ms total)
T0658 000:769 JLINK_WriteMem(0x4002C17C, 0x0004 Bytes, ...) -- Data:  09 00 00 00 -- CPU_WriteMem(4 bytes @ 0x4002C17C)  returns 0x04 (0001ms, 0602ms total)
T0658 000:770 JLINK_WriteMem(0x4002C180, 0x0004 Bytes, ...) -- Data:  09 00 00 00 -- CPU_WriteMem(4 bytes @ 0x4002C180)  returns 0x04 (0001ms, 0603ms total)
T0658 000:771 JLINK_WriteMem(0x4002C184, 0x0004 Bytes, ...) -- Data:  09 00 00 00 -- CPU_WriteMem(4 bytes @ 0x4002C184)  returns 0x04 (0000ms, 0603ms total)
T0658 000:771 JLINK_WriteMem(0x4002C188, 0x0004 Bytes, ...) -- Data:  09 00 00 00 -- CPU_WriteMem(4 bytes @ 0x4002C188)  returns 0x04 (0001ms, 0604ms total)
T0658 000:772 JLINK_WriteMem(0x4002C18C, 0x0004 Bytes, ...) -- Data:  09 00 00 00 -- CPU_WriteMem(4 bytes @ 0x4002C18C)  returns 0x04 (0001ms, 0605ms total)
T0658 000:773 JLINK_WriteMem(0x4002C190, 0x0004 Bytes, ...) -- Data:  09 00 00 00 -- CPU_WriteMem(4 bytes @ 0x4002C190)  returns 0x04 (0001ms, 0606ms total)
T0658 000:774 JLINK_WriteMem(0x4002C194, 0x0004 Bytes, ...) -- Data:  09 00 00 00 -- CPU_WriteMem(4 bytes @ 0x4002C194)  returns 0x04 (0000ms, 0606ms total)
T0658 000:774 JLINK_WriteMem(0x4002C198, 0x0004 Bytes, ...) -- Data:  09 00 00 00 -- CPU_WriteMem(4 bytes @ 0x4002C198)  returns 0x04 (0001ms, 0607ms total)
T0658 000:775 JLINK_WriteMem(0x4002C19C, 0x0004 Bytes, ...) -- Data:  09 00 00 00 -- CPU_WriteMem(4 bytes @ 0x4002C19C)  returns 0x04 (0001ms, 0608ms total)
T0658 000:776 JLINK_WriteMem(0x4002C1A0, 0x0004 Bytes, ...) -- Data:  09 00 00 00 -- CPU_WriteMem(4 bytes @ 0x4002C1A0)  returns 0x04 (0000ms, 0608ms total)
T0658 000:777 JLINK_WriteMem(0x4002C1A4, 0x0004 Bytes, ...) -- Data:  09 00 00 00 -- CPU_WriteMem(4 bytes @ 0x4002C1A4)  returns 0x04 (0000ms, 0608ms total)
T0658 000:777 JLINK_WriteMem(0x4002C1A8, 0x0004 Bytes, ...) -- Data:  09 00 00 00 -- CPU_WriteMem(4 bytes @ 0x4002C1A8)  returns 0x04 (0001ms, 0609ms total)
T0658 000:778 JLINK_WriteMem(0x4002C1AC, 0x0004 Bytes, ...) -- Data:  09 00 00 00 -- CPU_WriteMem(4 bytes @ 0x4002C1AC)  returns 0x04 (0001ms, 0610ms total)
T0658 000:779 JLINK_WriteMem(0x4002C1B0, 0x0004 Bytes, ...) -- Data:  09 00 00 00 -- CPU_WriteMem(4 bytes @ 0x4002C1B0)  returns 0x04 (0001ms, 0611ms total)
T0658 000:780 JLINK_WriteMem(0x4002C1B4, 0x0004 Bytes, ...) -- Data:  09 00 00 00 -- CPU_WriteMem(4 bytes @ 0x4002C1B4)  returns 0x04 (0000ms, 0611ms total)
T0658 000:780 JLINK_WriteMem(0x4002C1B8, 0x0004 Bytes, ...) -- Data:  09 00 00 00 -- CPU_WriteMem(4 bytes @ 0x4002C1B8)  returns 0x04 (0001ms, 0612ms total)
T0658 000:781 JLINK_WriteMem(0x4002C1BC, 0x0004 Bytes, ...) -- Data:  09 00 00 00 -- CPU_WriteMem(4 bytes @ 0x4002C1BC)  returns 0x04 (0001ms, 0613ms total)
T0658 000:782 JLINK_WriteMem(0x4002C1C0, 0x0004 Bytes, ...) -- Data:  09 00 00 00 -- CPU_WriteMem(4 bytes @ 0x4002C1C0)  returns 0x04 (0001ms, 0614ms total)
T0658 000:783 JLINK_WriteMem(0x4002C1C4, 0x0004 Bytes, ...) -- Data:  09 00 00 00 -- CPU_WriteMem(4 bytes @ 0x4002C1C4)  returns 0x04 (0001ms, 0615ms total)
T0658 000:784 JLINK_WriteMem(0x4002C1C8, 0x0004 Bytes, ...) -- Data:  09 00 00 00 -- CPU_WriteMem(4 bytes @ 0x4002C1C8)  returns 0x04 (0001ms, 0616ms total)
T0658 000:785 JLINK_WriteMem(0x4002C1CC, 0x0004 Bytes, ...) -- Data:  09 00 00 00 -- CPU_WriteMem(4 bytes @ 0x4002C1CC)  returns 0x04 (0000ms, 0616ms total)
T0658 000:785 JLINK_WriteMem(0x4002C1D0, 0x0004 Bytes, ...) -- Data:  09 00 00 00 -- CPU_WriteMem(4 bytes @ 0x4002C1D0)  returns 0x04 (0001ms, 0617ms total)
T0658 000:786 JLINK_WriteMem(0x4002C1D4, 0x0004 Bytes, ...) -- Data:  09 00 00 00 -- CPU_WriteMem(4 bytes @ 0x4002C1D4)  returns 0x04 (0000ms, 0617ms total)
T0658 000:801 JLINK_WriteMem(0x4002C1D8, 0x0004 Bytes, ...) -- Data:  09 00 00 00 -- CPU_WriteMem(4 bytes @ 0x4002C1D8)  returns 0x04 (0001ms, 0618ms total)
T0658 000:802 JLINK_WriteMem(0x4002C1DC, 0x0004 Bytes, ...) -- Data:  09 00 00 00 -- CPU_WriteMem(4 bytes @ 0x4002C1DC)  returns 0x04 (0001ms, 0619ms total)
T0658 000:803 JLINK_WriteMem(0x4002C1E0, 0x0004 Bytes, ...) -- Data:  09 00 00 00 -- CPU_WriteMem(4 bytes @ 0x4002C1E0)  returns 0x04 (0001ms, 0620ms total)
T0658 000:804 JLINK_WriteMem(0x4002C1E4, 0x0004 Bytes, ...) -- Data:  09 00 00 00 -- CPU_WriteMem(4 bytes @ 0x4002C1E4)  returns 0x04 (0000ms, 0620ms total)
T0658 000:804 JLINK_WriteMem(0x4002C1E8, 0x0004 Bytes, ...) -- Data:  09 00 00 00 -- CPU_WriteMem(4 bytes @ 0x4002C1E8)  returns 0x04 (0001ms, 0621ms total)
T0658 000:805 JLINK_WriteMem(0x4002C1EC, 0x0004 Bytes, ...) -- Data:  09 00 00 00 -- CPU_WriteMem(4 bytes @ 0x4002C1EC)  returns 0x04 (0001ms, 0622ms total)
T0658 000:806 JLINK_WriteMem(0x4002C1F0, 0x0004 Bytes, ...) -- Data:  09 00 00 00 -- CPU_WriteMem(4 bytes @ 0x4002C1F0)  returns 0x04 (0001ms, 0623ms total)
T0658 000:807 JLINK_WriteMem(0x4002C1F4, 0x0004 Bytes, ...) -- Data:  09 00 00 00 -- CPU_WriteMem(4 bytes @ 0x4002C1F4)  returns 0x04 (0001ms, 0624ms total)
T0658 000:808 JLINK_WriteMem(0x4002C1F8, 0x0004 Bytes, ...) -- Data:  09 00 00 00 -- CPU_WriteMem(4 bytes @ 0x4002C1F8)  returns 0x04 (0001ms, 0625ms total)
T0658 000:809 JLINK_WriteMem(0x4002C1FC, 0x0004 Bytes, ...) -- Data:  09 00 00 00 -- CPU_WriteMem(4 bytes @ 0x4002C1FC)  returns 0x04 (0000ms, 0625ms total)
T0658 000:810 JLINK_WriteMem(0x4002C200, 0x0004 Bytes, ...) -- Data:  09 00 00 00 -- CPU_WriteMem(4 bytes @ 0x4002C200)  returns 0x04 (0000ms, 0626ms total)
T0658 000:810 JLINK_WriteMem(0x4002C204, 0x0004 Bytes, ...) -- Data:  09 00 00 00 -- CPU_WriteMem(4 bytes @ 0x4002C204)  returns 0x04 (0001ms, 0627ms total)
T0658 000:811 JLINK_WriteMem(0x4002C208, 0x0004 Bytes, ...) -- Data:  09 00 00 00 -- CPU_WriteMem(4 bytes @ 0x4002C208)  returns 0x04 (0001ms, 0628ms total)
T0658 000:812 JLINK_WriteMem(0x4002C20C, 0x0004 Bytes, ...) -- Data:  09 00 00 00 -- CPU_WriteMem(4 bytes @ 0x4002C20C)  returns 0x04 (0000ms, 0628ms total)
T0658 000:813 JLINK_WriteMem(0x4002C210, 0x0004 Bytes, ...) -- Data:  09 00 00 00 -- CPU_WriteMem(4 bytes @ 0x4002C210)  returns 0x04 (0000ms, 0628ms total)
T0658 000:813 JLINK_WriteMem(0x4002C214, 0x0004 Bytes, ...) -- Data:  09 00 00 00 -- CPU_WriteMem(4 bytes @ 0x4002C214)  returns 0x04 (0001ms, 0629ms total)
T0658 000:814 JLINK_WriteMem(0x4002C218, 0x0004 Bytes, ...) -- Data:  09 00 00 00 -- CPU_WriteMem(4 bytes @ 0x4002C218)  returns 0x04 (0001ms, 0630ms total)
T0658 000:815 JLINK_WriteMem(0x4002C21C, 0x0004 Bytes, ...) -- Data:  09 00 00 00 -- CPU_WriteMem(4 bytes @ 0x4002C21C)  returns 0x04 (0001ms, 0631ms total)
T0658 000:816 JLINK_WriteMem(0x4002C220, 0x0004 Bytes, ...) -- Data:  09 00 00 00 -- CPU_WriteMem(4 bytes @ 0x4002C220)  returns 0x04 (0000ms, 0631ms total)
T0658 000:816 JLINK_WriteMem(0x4002C224, 0x0004 Bytes, ...) -- Data:  09 00 00 00 -- CPU_WriteMem(4 bytes @ 0x4002C224)  returns 0x04 (0002ms, 0633ms total)
T0658 000:818 JLINK_WriteMem(0x4002C228, 0x0004 Bytes, ...) -- Data:  09 00 00 00 -- CPU_WriteMem(4 bytes @ 0x4002C228)  returns 0x04 (0000ms, 0633ms total)
T0658 000:818 JLINK_WriteMem(0x4002C22C, 0x0004 Bytes, ...) -- Data:  09 00 00 00 -- CPU_WriteMem(4 bytes @ 0x4002C22C)  returns 0x04 (0001ms, 0634ms total)
T0658 000:819 JLINK_WriteMem(0x4002C230, 0x0004 Bytes, ...) -- Data:  09 00 00 00 -- CPU_WriteMem(4 bytes @ 0x4002C230)  returns 0x04 (0001ms, 0635ms total)
T0658 000:820 JLINK_WriteMem(0x4002C234, 0x0004 Bytes, ...) -- Data:  09 00 00 00 -- CPU_WriteMem(4 bytes @ 0x4002C234)  returns 0x04 (0000ms, 0635ms total)
T0658 000:820 JLINK_WriteMem(0x4002C238, 0x0004 Bytes, ...) -- Data:  09 00 00 00 -- CPU_WriteMem(4 bytes @ 0x4002C238)  returns 0x04 (0001ms, 0636ms total)
T0658 000:821 JLINK_WriteMem(0x4002C23C, 0x0004 Bytes, ...) -- Data:  09 00 00 00 -- CPU_WriteMem(4 bytes @ 0x4002C23C)  returns 0x04 (0001ms, 0637ms total)
T0658 000:822 JLINK_WriteMem(0x4002C240, 0x0004 Bytes, ...) -- Data:  09 00 00 00 -- CPU_WriteMem(4 bytes @ 0x4002C240)  returns 0x04 (0001ms, 0638ms total)
T0658 000:823 JLINK_WriteMem(0x4002C244, 0x0004 Bytes, ...) -- Data:  09 00 00 00 -- CPU_WriteMem(4 bytes @ 0x4002C244)  returns 0x04 (0001ms, 0639ms total)
T0658 000:828 JLINK_WriteMem(0x4002C248, 0x0004 Bytes, ...) -- Data:  09 00 00 00 -- CPU_WriteMem(4 bytes @ 0x4002C248)  returns 0x04 (0001ms, 0640ms total)
T0658 000:829 JLINK_WriteMem(0x4002C24C, 0x0004 Bytes, ...) -- Data:  09 00 00 00 -- CPU_WriteMem(4 bytes @ 0x4002C24C)  returns 0x04 (0000ms, 0640ms total)
T0658 000:829 JLINK_WriteMem(0x4002C250, 0x0004 Bytes, ...) -- Data:  09 00 00 00 -- CPU_WriteMem(4 bytes @ 0x4002C250)  returns 0x04 (0001ms, 0641ms total)
T0658 000:830 JLINK_WriteMem(0x4002C260, 0x0004 Bytes, ...) -- Data:  09 00 00 00 -- CPU_WriteMem(4 bytes @ 0x4002C260)  returns 0x04 (0001ms, 0642ms total)
T0658 000:831 JLINK_WriteMem(0x4002C264, 0x0004 Bytes, ...) -- Data:  09 00 00 00 -- CPU_WriteMem(4 bytes @ 0x4002C264)  returns 0x04 (0001ms, 0643ms total)
T0658 000:832 JLINK_WriteMem(0x4002C278, 0x0004 Bytes, ...) -- Data:  09 00 00 00 -- CPU_WriteMem(4 bytes @ 0x4002C278)  returns 0x04 (0000ms, 0643ms total)
T0658 000:832 JLINK_WriteMem(0x4002C27C, 0x0004 Bytes, ...) -- Data:  09 00 00 00 -- CPU_WriteMem(4 bytes @ 0x4002C27C)  returns 0x04 (0001ms, 0644ms total)
T0658 000:833 JLINK_WriteMem(0x400FC0C4, 0x0004 Bytes, ...) -- Data:  DE 8F 28 04 -- CPU_WriteMem(4 bytes @ 0x400FC0C4)  returns 0x04 (0001ms, 0645ms total)
T0658 000:834 JLINK_WriteMem(0x2009C000, 0x0004 Bytes, ...) -- Data:  01 00 00 00 -- CPU_WriteMem(4 bytes @ 0x2009C000)  returns 0x04 (0001ms, 0646ms total)
T0658 000:835 JLINK_WriteMem(0x400FC1DC, 0x0004 Bytes, ...) -- Data:  18 18 08 00 -- CPU_WriteMem(4 bytes @ 0x400FC1DC)  returns 0x04 (0001ms, 0647ms total)
T0658 000:836 JLINK_WriteMem(0x2009C008, 0x0004 Bytes, ...) -- Data:  00 00 00 00 -- CPU_WriteMem(4 bytes @ 0x2009C008)  returns 0x04 (0000ms, 0647ms total)
T0658 000:836 JLINK_WriteMem(0x2009C220, 0x0004 Bytes, ...) -- Data:  81 00 00 00 -- CPU_WriteMem(4 bytes @ 0x2009C220)  returns 0x04 (0001ms, 0648ms total)
T0658 000:837 JLINK_WriteMem(0x2009C224, 0x0004 Bytes, ...) -- Data:  02 00 00 00 -- CPU_WriteMem(4 bytes @ 0x2009C224)  returns 0x04 (0001ms, 0649ms total)
T0658 000:838 JLINK_WriteMem(0x2009C228, 0x0004 Bytes, ...) -- Data:  02 00 00 00 -- CPU_WriteMem(4 bytes @ 0x2009C228)  returns 0x04 (0001ms, 0650ms total)
T0658 000:839 JLINK_WriteMem(0x2009C22C, 0x0004 Bytes, ...) -- Data:  1F 00 00 00 -- CPU_WriteMem(4 bytes @ 0x2009C22C)  returns 0x04 (0001ms, 0651ms total)
T0658 000:840 JLINK_WriteMem(0x2009C230, 0x0004 Bytes, ...) -- Data:  1F 00 00 00 -- CPU_WriteMem(4 bytes @ 0x2009C230)  returns 0x04 (0000ms, 0651ms total)
T0658 000:840 JLINK_WriteMem(0x2009C234, 0x0004 Bytes, ...) -- Data:  1F 00 00 00 -- CPU_WriteMem(4 bytes @ 0x2009C234)  returns 0x04 (0001ms, 0652ms total)
T0658 000:841 JLINK_WriteMem(0x2009C238, 0x0004 Bytes, ...) -- Data:  0F 00 00 00 -- CPU_WriteMem(4 bytes @ 0x2009C238)  returns 0x04 (0001ms, 0653ms total)
T0658 000:940 JLINK_Halt()  returns 0x00 (0000ms, 0653ms total)
T0658 000:940 JLINK_IsHalted()
                JLINK_ReadMemHW(0x400FC040, 0x0004 Bytes, ...) -- CPU_ReadMem(4 bytes @ 0x400FC040) -- Data:  01 00 00 00  returns 0x00 (0001ms, 0001ms total)
               -- MA0 is in flash -- Unmirror addr 0x00000278  returns TRUE (0001ms, 0654ms total)
T0658 000:943 JLINK_WriteMem(0x10000000, 0x01E4 Bytes, ...) -- Data:  00 BE 0A E0 0D 78 2D 06 68 40 08 24 40 00 00 D3 ... -- CPU_WriteMem(484 bytes @ 0x10000000)  returns 0x1E4 (0004ms, 0657ms total)
T0658 000:947 JLINK_WriteReg(R0, 0x00000000)  returns 0x00 (0000ms, 0657ms total)
T0658 000:947 JLINK_WriteReg(R1, 0x00B71B00)  returns 0x00 (0000ms, 0657ms total)
T0658 000:947 JLINK_WriteReg(R2, 0x00000001)  returns 0x00 (0000ms, 0657ms total)
T0658 000:947 JLINK_WriteReg(R3, 0x00000000)  returns 0x00 (0000ms, 0657ms total)
T0658 000:947 JLINK_WriteReg(R4, 0x00000000)  returns 0x00 (0000ms, 0657ms total)
T0658 000:947 JLINK_WriteReg(R5, 0x00000000)  returns 0x00 (0000ms, 0657ms total)
T0658 000:947 JLINK_WriteReg(R6, 0x00000000)  returns 0x00 (0000ms, 0657ms total)
T0658 000:947 JLINK_WriteReg(R7, 0x00000000)  returns 0x00 (0000ms, 0657ms total)
T0658 000:947 JLINK_WriteReg(R8, 0x00000000)  returns 0x00 (0000ms, 0657ms total)
T0658 000:947 JLINK_WriteReg(R9, 0x100001DC)  returns 0x00 (0000ms, 0657ms total)
T0658 000:948 JLINK_WriteReg(R10, 0x00000000)  returns 0x00 (0000ms, 0658ms total)
T0658 000:948 JLINK_WriteReg(R11, 0x00000000)  returns 0x00 (0000ms, 0658ms total)
T0658 000:948 JLINK_WriteReg(R12, 0x00000000)  returns 0x00 (0000ms, 0658ms total)
T0658 000:948 JLINK_WriteReg(R13, 0x10001000)  returns 0x00 (0000ms, 0658ms total)
T0658 000:948 JLINK_WriteReg(R14, 0x10000001)  returns 0x00 (0000ms, 0658ms total)
T0658 000:948 JLINK_WriteReg(R15, 0x10000044)  returns 0x00 (0000ms, 0658ms total)
T0658 000:948 JLINK_WriteReg(XPSR, 0x01000000)  returns 0x00 (0000ms, 0658ms total)
T0658 000:948 JLINK_WriteReg(MSP, 0x10001000)  returns 0x00 (0000ms, 0658ms total)
T0658 000:948 JLINK_WriteReg(PSP, 0x10001000)  returns 0x00 (0000ms, 0658ms total)
T0658 000:948 JLINK_WriteReg(CFBP, 0x00000000)  returns 0x00 (0000ms, 0658ms total)
T0658 000:948 JLINK_SetBPEx(Addr = 0x10000000, Type = 0xFFFFFFF2)  returns 0x00000001 (0000ms, 0658ms total)
T0658 000:948 JLINK_Go() -- CPU_WriteMem(4 bytes @ 0xE0002008) -- CPU_WriteMem(4 bytes @ 0xE000200C) -- CPU_WriteMem(4 bytes @ 0xE0002010) -- CPU_WriteMem(4 bytes @ 0xE0002014) -- CPU_WriteMem(4 bytes @ 0xE0002018) -- CPU_WriteMem(4 bytes @ 0xE000201C) -- Invalidate MA0 status (0007ms, 0665ms total)
T0658 000:955 JLINK_IsHalted()  returns TRUE (0003ms, 0668ms total)
T0658 000:958 JLINK_ReadReg(R15)  returns 0x10000000 (0000ms, 0665ms total)
T0658 000:958 JLINK_ClrBPEx(BPHandle = 0x00000001)  returns 0x00 (0000ms, 0665ms total)
T0658 000:958 JLINK_ReadReg(R0)  returns 0x00000000 (0000ms, 0665ms total)
T0658 000:959 JLINK_WriteReg(R0, 0x00000000)  returns 0x00 (0000ms, 0665ms total)
T0658 000:959 JLINK_WriteReg(R1, 0x00001000)  returns 0x00 (0000ms, 0665ms total)
T0658 000:959 JLINK_WriteReg(R2, 0x000000FF)  returns 0x00 (0000ms, 0665ms total)
T0658 000:959 JLINK_WriteReg(R3, 0x00000000)  returns 0x00 (0000ms, 0665ms total)
T0658 000:959 JLINK_WriteReg(R4, 0x00000000)  returns 0x00 (0000ms, 0665ms total)
T0658 000:959 JLINK_WriteReg(R5, 0x00000000)  returns 0x00 (0000ms, 0665ms total)
T0658 000:959 JLINK_WriteReg(R6, 0x00000000)  returns 0x00 (0000ms, 0665ms total)
T0658 000:959 JLINK_WriteReg(R7, 0x00000000)  returns 0x00 (0000ms, 0665ms total)
T0658 000:959 JLINK_WriteReg(R8, 0x00000000)  returns 0x00 (0000ms, 0665ms total)
T0658 000:959 JLINK_WriteReg(R9, 0x100001DC)  returns 0x00 (0000ms, 0665ms total)
T0658 000:959 JLINK_WriteReg(R10, 0x00000000)  returns 0x00 (0000ms, 0665ms total)
T0658 000:959 JLINK_WriteReg(R11, 0x00000000)  returns 0x00 (0000ms, 0665ms total)
T0658 000:959 JLINK_WriteReg(R12, 0x00000000)  returns 0x00 (0000ms, 0665ms total)
T0658 000:959 JLINK_WriteReg(R13, 0x10001000)  returns 0x00 (0000ms, 0665ms total)
T0658 000:959 JLINK_WriteReg(R14, 0x10000001)  returns 0x00 (0000ms, 0665ms total)
T0658 000:959 JLINK_WriteReg(R15, 0x10000020)  returns 0x00 (0000ms, 0665ms total)
T0658 000:959 JLINK_WriteReg(XPSR, 0x01000000)  returns 0x00 (0000ms, 0665ms total)
T0658 000:959 JLINK_WriteReg(MSP, 0x10001000)  returns 0x00 (0000ms, 0665ms total)
T0658 000:959 JLINK_WriteReg(PSP, 0x10001000)  returns 0x00 (0000ms, 0665ms total)
T0658 000:959 JLINK_WriteReg(CFBP, 0x00000000)  returns 0x00 (0000ms, 0665ms total)
T0658 000:959 JLINK_SetBPEx(Addr = 0x10000000, Type = 0xFFFFFFF2)  returns 0x00000002 (0000ms, 0665ms total)
T0658 000:959 JLINK_Go() -- CPU_WriteMem(4 bytes @ 0xE0002008) -- CPU_WriteMem(4 bytes @ 0xE000200C) -- CPU_WriteMem(4 bytes @ 0xE0002010) -- CPU_WriteMem(4 bytes @ 0xE0002014) -- CPU_WriteMem(4 bytes @ 0xE0002018) -- CPU_WriteMem(4 bytes @ 0xE000201C) (0007ms, 0672ms total)
T0658 000:966 JLINK_IsHalted()  returns TRUE (0002ms, 0674ms total)
T0658 000:968 JLINK_ReadReg(R15)  returns 0x10000000 (0000ms, 0672ms total)
T0658 000:968 JLINK_ClrBPEx(BPHandle = 0x00000002)  returns 0x00 (0000ms, 0672ms total)
T0658 000:968 JLINK_ReadReg(R0)  returns 0x00000001 (0000ms, 0672ms total)
T0658 000:968 JLINK_WriteReg(R0, 0x00000000)  returns 0x00 (0000ms, 0672ms total)
T0658 000:968 JLINK_WriteReg(R1, 0x00001000)  returns 0x00 (0000ms, 0672ms total)
T0658 000:968 JLINK_WriteReg(R2, 0x000000FF)  returns 0x00 (0000ms, 0672ms total)
T0658 000:968 JLINK_WriteReg(R3, 0x00000000)  returns 0x00 (0000ms, 0672ms total)
T0658 000:968 JLINK_WriteReg(R4, 0x00000000)  returns 0x00 (0000ms, 0672ms total)
T0658 000:968 JLINK_WriteReg(R5, 0x00000000)  returns 0x00 (0000ms, 0672ms total)
T0658 000:968 JLINK_WriteReg(R6, 0x00000000)  returns 0x00 (0001ms, 0673ms total)
T0658 000:969 JLINK_WriteReg(R7, 0x00000000)  returns 0x00 (0000ms, 0673ms total)
T0658 000:969 JLINK_WriteReg(R8, 0x00000000)  returns 0x00 (0000ms, 0673ms total)
T0658 000:969 JLINK_WriteReg(R9, 0x100001DC)  returns 0x00 (0000ms, 0673ms total)
T0658 000:969 JLINK_WriteReg(R10, 0x00000000)  returns 0x00 (0000ms, 0673ms total)
T0658 000:969 JLINK_WriteReg(R11, 0x00000000)  returns 0x00 (0000ms, 0673ms total)
T0658 000:969 JLINK_WriteReg(R12, 0x00000000)  returns 0x00 (0000ms, 0673ms total)
T0658 000:969 JLINK_WriteReg(R13, 0x10001000)  returns 0x00 (0000ms, 0673ms total)
T0658 000:969 JLINK_WriteReg(R14, 0x10000001)  returns 0x00 (0000ms, 0673ms total)
T0658 000:969 JLINK_WriteReg(R15, 0x10000110)  returns 0x00 (0000ms, 0673ms total)
T0658 000:969 JLINK_WriteReg(XPSR, 0x01000000)  returns 0x00 (0000ms, 0673ms total)
T0658 000:969 JLINK_WriteReg(MSP, 0x10001000)  returns 0x00 (0000ms, 0673ms total)
T0658 000:969 JLINK_WriteReg(PSP, 0x10001000)  returns 0x00 (0000ms, 0673ms total)
T0658 000:969 JLINK_WriteReg(CFBP, 0x00000000)  returns 0x00 (0000ms, 0673ms total)
T0658 000:969 JLINK_SetBPEx(Addr = 0x10000000, Type = 0xFFFFFFF2)  returns 0x00000003 (0000ms, 0673ms total)
T0658 000:969 JLINK_Go() -- CPU_WriteMem(4 bytes @ 0xE0002008) -- CPU_WriteMem(4 bytes @ 0xE000200C) -- CPU_WriteMem(4 bytes @ 0xE0002010) -- CPU_WriteMem(4 bytes @ 0xE0002014) -- CPU_WriteMem(4 bytes @ 0xE0002018) -- CPU_WriteMem(4 bytes @ 0xE000201C) (0006ms, 0679ms total)
T0658 000:975 JLINK_IsHalted()  returns FALSE (0001ms, 0680ms total)
T0658 000:980 JLINK_IsHalted()  returns FALSE (0000ms, 0679ms total)
T0658 000:981 JLINK_IsHalted()  returns FALSE (0000ms, 0679ms total)
T0658 000:982 JLINK_IsHalted()  returns FALSE (0000ms, 0679ms total)
T0658 000:983 JLINK_IsHalted()  returns FALSE (0000ms, 0679ms total)
T0658 000:984 JLINK_IsHalted()  returns FALSE (0000ms, 0679ms total)
T0658 000:985 JLINK_IsHalted()  returns FALSE (0000ms, 0679ms total)
T0658 000:986 JLINK_IsHalted()  returns FALSE (0000ms, 0679ms total)
T0658 000:987 JLINK_IsHalted()  returns FALSE (0000ms, 0679ms total)
T0658 000:988 JLINK_IsHalted()  returns FALSE (0000ms, 0679ms total)
T0658 000:989 JLINK_IsHalted()  returns FALSE (0000ms, 0679ms total)
T0658 000:990 JLINK_IsHalted()  returns FALSE (0000ms, 0679ms total)
T0658 000:991 JLINK_IsHalted()  returns FALSE (0000ms, 0679ms total)
T0658 000:992 JLINK_IsHalted()  returns FALSE (0000ms, 0679ms total)
T0658 000:993 JLINK_IsHalted()  returns FALSE (0000ms, 0679ms total)
T0658 000:994 JLINK_IsHalted()  returns FALSE (0000ms, 0679ms total)
T0658 000:995 JLINK_IsHalted()  returns FALSE (0000ms, 0679ms total)
T0658 000:996 JLINK_IsHalted()  returns FALSE (0000ms, 0679ms total)
T0658 000:997 JLINK_IsHalted()  returns FALSE (0000ms, 0679ms total)
T0658 000:998 JLINK_IsHalted()  returns FALSE (0000ms, 0679ms total)
T0658 000:999 JLINK_IsHalted()  returns FALSE (0000ms, 0679ms total)
T0658 001:000 JLINK_IsHalted()  returns FALSE (0000ms, 0679ms total)
T0658 001:001 JLINK_IsHalted()  returns FALSE (0001ms, 0680ms total)
T0658 001:003 JLINK_IsHalted()  returns FALSE (0000ms, 0679ms total)
T0658 001:004 JLINK_IsHalted()  returns FALSE (0000ms, 0679ms total)
T0658 001:005 JLINK_IsHalted()  returns FALSE (0000ms, 0679ms total)
T0658 001:006 JLINK_IsHalted()  returns FALSE (0000ms, 0679ms total)
T0658 001:007 JLINK_IsHalted()  returns FALSE (0000ms, 0679ms total)
T0658 001:008 JLINK_IsHalted()  returns FALSE (0000ms, 0679ms total)
T0658 001:009 JLINK_IsHalted()  returns FALSE (0000ms, 0679ms total)
T0658 001:010 JLINK_IsHalted()  returns FALSE (0000ms, 0679ms total)
T0658 001:011 JLINK_IsHalted()  returns FALSE (0000ms, 0679ms total)
T0658 001:012 JLINK_IsHalted()  returns FALSE (0000ms, 0679ms total)
T0658 001:013 JLINK_IsHalted()  returns FALSE (0000ms, 0679ms total)
T0658 001:014 JLINK_IsHalted()  returns FALSE (0000ms, 0679ms total)
T0658 001:015 JLINK_IsHalted()  returns FALSE (0000ms, 0679ms total)
T0658 001:016 JLINK_IsHalted()  returns FALSE (0000ms, 0679ms total)
T0658 001:017 JLINK_IsHalted()  returns FALSE (0001ms, 0680ms total)
T0658 001:040 JLINK_IsHalted()  returns FALSE (0000ms, 0679ms total)
T0658 001:041 JLINK_IsHalted()  returns FALSE (0000ms, 0679ms total)
T0658 001:042 JLINK_IsHalted()  returns FALSE (0000ms, 0679ms total)
T0658 001:043 JLINK_IsHalted()  returns FALSE (0000ms, 0679ms total)
T0658 001:044 JLINK_IsHalted()  returns FALSE (0000ms, 0679ms total)
T0658 001:045 JLINK_IsHalted()  returns FALSE (0000ms, 0679ms total)
T0658 001:046 JLINK_IsHalted()  returns FALSE (0000ms, 0679ms total)
T0658 001:047 JLINK_IsHalted()  returns FALSE (0000ms, 0679ms total)
T0658 001:048 JLINK_IsHalted()  returns FALSE (0000ms, 0679ms total)
T0658 001:049 JLINK_IsHalted()  returns FALSE (0000ms, 0679ms total)
T0658 001:050 JLINK_IsHalted()  returns FALSE (0001ms, 0680ms total)
T0658 001:053 JLINK_IsHalted()  returns FALSE (0000ms, 0679ms total)
T0658 001:054 JLINK_IsHalted()  returns FALSE (0000ms, 0679ms total)
T0658 001:055 JLINK_IsHalted()  returns FALSE (0000ms, 0679ms total)
T0658 001:056 JLINK_IsHalted()  returns FALSE (0000ms, 0679ms total)
T0658 001:057 JLINK_IsHalted()  returns FALSE (0000ms, 0679ms total)
T0658 001:058 JLINK_IsHalted()  returns FALSE (0000ms, 0679ms total)
T0658 001:059 JLINK_IsHalted()  returns FALSE (0000ms, 0679ms total)
T0658 001:060 JLINK_IsHalted()  returns FALSE (0000ms, 0679ms total)
T0658 001:061 JLINK_IsHalted()  returns FALSE (0000ms, 0679ms total)
T0658 001:062 JLINK_IsHalted()  returns FALSE (0000ms, 0679ms total)
T0658 001:064 JLINK_IsHalted()  returns FALSE (0000ms, 0679ms total)
T0658 001:065 JLINK_IsHalted()  returns FALSE (0000ms, 0679ms total)
T0658 001:066 JLINK_IsHalted()  returns FALSE (0000ms, 0679ms total)
T0658 001:067 JLINK_IsHalted()  returns FALSE (0000ms, 0679ms total)
T0658 001:068 JLINK_IsHalted()  returns FALSE (0000ms, 0679ms total)
T0658 001:069 JLINK_IsHalted()  returns FALSE (0000ms, 0679ms total)
T0658 001:070 JLINK_IsHalted()  returns FALSE (0000ms, 0679ms total)
T0658 001:071 JLINK_IsHalted()  returns FALSE (0000ms, 0679ms total)
T0658 001:072 JLINK_IsHalted()  returns FALSE (0000ms, 0679ms total)
T0658 001:073 JLINK_IsHalted()  returns FALSE (0000ms, 0679ms total)
T0658 001:074 JLINK_IsHalted()  returns TRUE (0002ms, 0681ms total)
T0658 001:076 JLINK_ReadReg(R15)  returns 0x10000000 (0000ms, 0679ms total)
T0658 001:076 JLINK_ClrBPEx(BPHandle = 0x00000003)  returns 0x00 (0000ms, 0679ms total)
T0658 001:076 JLINK_ReadReg(R0)  returns 0x00000000 (0000ms, 0679ms total)
T0658 001:077 JLINK_WriteReg(R0, 0x00001000)  returns 0x00 (0000ms, 0679ms total)
T0658 001:077 JLINK_WriteReg(R1, 0x00001000)  returns 0x00 (0000ms, 0679ms total)
T0658 001:077 JLINK_WriteReg(R2, 0x000000FF)  returns 0x00 (0000ms, 0679ms total)
T0658 001:077 JLINK_WriteReg(R3, 0x00000000)  returns 0x00 (0000ms, 0679ms total)
T0658 001:077 JLINK_WriteReg(R4, 0x00000000)  returns 0x00 (0000ms, 0679ms total)
T0658 001:077 JLINK_WriteReg(R5, 0x00000000)  returns 0x00 (0000ms, 0679ms total)
T0658 001:077 JLINK_WriteReg(R6, 0x00000000)  returns 0x00 (0000ms, 0679ms total)
T0658 001:077 JLINK_WriteReg(R7, 0x00000000)  returns 0x00 (0000ms, 0679ms total)
T0658 001:077 JLINK_WriteReg(R8, 0x00000000)  returns 0x00 (0000ms, 0679ms total)
T0658 001:077 JLINK_WriteReg(R9, 0x100001DC)  returns 0x00 (0000ms, 0679ms total)
T0658 001:077 JLINK_WriteReg(R10, 0x00000000)  returns 0x00 (0000ms, 0679ms total)
T0658 001:077 JLINK_WriteReg(R11, 0x00000000)  returns 0x00 (0000ms, 0679ms total)
T0658 001:077 JLINK_WriteReg(R12, 0x00000000)  returns 0x00 (0000ms, 0679ms total)
T0658 001:077 JLINK_WriteReg(R13, 0x10001000)  returns 0x00 (0000ms, 0679ms total)
T0658 001:077 JLINK_WriteReg(R14, 0x10000001)  returns 0x00 (0000ms, 0679ms total)
T0658 001:077 JLINK_WriteReg(R15, 0x10000020)  returns 0x00 (0000ms, 0679ms total)
T0658 001:077 JLINK_WriteReg(XPSR, 0x01000000)  returns 0x00 (0000ms, 0679ms total)
T0658 001:077 JLINK_WriteReg(MSP, 0x10001000)  returns 0x00 (0000ms, 0679ms total)
T0658 001:077 JLINK_WriteReg(PSP, 0x10001000)  returns 0x00 (0000ms, 0679ms total)
T0658 001:077 JLINK_WriteReg(CFBP, 0x00000000)  returns 0x00 (0000ms, 0679ms total)
T0658 001:077 JLINK_SetBPEx(Addr = 0x10000000, Type = 0xFFFFFFF2)  returns 0x00000004 (0000ms, 0679ms total)
T0658 001:077 JLINK_Go() -- CPU_WriteMem(4 bytes @ 0xE0002008) -- CPU_WriteMem(4 bytes @ 0xE000200C) -- CPU_WriteMem(4 bytes @ 0xE0002010) -- CPU_WriteMem(4 bytes @ 0xE0002014) -- CPU_WriteMem(4 bytes @ 0xE0002018) -- CPU_WriteMem(4 bytes @ 0xE000201C) (0007ms, 0686ms total)
T0658 001:084 JLINK_IsHalted()  returns TRUE (0002ms, 0688ms total)
T0658 001:086 JLINK_ReadReg(R15)  returns 0x10000000 (0000ms, 0686ms total)
T0658 001:086 JLINK_ClrBPEx(BPHandle = 0x00000004)  returns 0x00 (0000ms, 0686ms total)
T0658 001:086 JLINK_ReadReg(R0)  returns 0x00000001 (0000ms, 0686ms total)
T0658 001:086 JLINK_WriteReg(R0, 0x00001000)  returns 0x00 (0000ms, 0686ms total)
T0658 001:086 JLINK_WriteReg(R1, 0x00001000)  returns 0x00 (0001ms, 0687ms total)
T0658 001:087 JLINK_WriteReg(R2, 0x000000FF)  returns 0x00 (0000ms, 0687ms total)
T0658 001:087 JLINK_WriteReg(R3, 0x00000000)  returns 0x00 (0000ms, 0687ms total)
T0658 001:087 JLINK_WriteReg(R4, 0x00000000)  returns 0x00 (0000ms, 0687ms total)
T0658 001:087 JLINK_WriteReg(R5, 0x00000000)  returns 0x00 (0000ms, 0687ms total)
T0658 001:087 JLINK_WriteReg(R6, 0x00000000)  returns 0x00 (0000ms, 0687ms total)
T0658 001:087 JLINK_WriteReg(R7, 0x00000000)  returns 0x00 (0000ms, 0687ms total)
T0658 001:087 JLINK_WriteReg(R8, 0x00000000)  returns 0x00 (0000ms, 0687ms total)
T0658 001:087 JLINK_WriteReg(R9, 0x100001DC)  returns 0x00 (0000ms, 0687ms total)
T0658 001:087 JLINK_WriteReg(R10, 0x00000000)  returns 0x00 (0000ms, 0687ms total)
T0658 001:087 JLINK_WriteReg(R11, 0x00000000)  returns 0x00 (0000ms, 0687ms total)
T0658 001:087 JLINK_WriteReg(R12, 0x00000000)  returns 0x00 (0000ms, 0687ms total)
T0658 001:087 JLINK_WriteReg(R13, 0x10001000)  returns 0x00 (0000ms, 0687ms total)
T0658 001:087 JLINK_WriteReg(R14, 0x10000001)  returns 0x00 (0000ms, 0687ms total)
T0658 001:087 JLINK_WriteReg(R15, 0x10000110)  returns 0x00 (0000ms, 0687ms total)
T0658 001:087 JLINK_WriteReg(XPSR, 0x01000000)  returns 0x00 (0000ms, 0687ms total)
T0658 001:087 JLINK_WriteReg(MSP, 0x10001000)  returns 0x00 (0000ms, 0687ms total)
T0658 001:087 JLINK_WriteReg(PSP, 0x10001000)  returns 0x00 (0000ms, 0687ms total)
T0658 001:087 JLINK_WriteReg(CFBP, 0x00000000)  returns 0x00 (0000ms, 0687ms total)
T0658 001:087 JLINK_SetBPEx(Addr = 0x10000000, Type = 0xFFFFFFF2)  returns 0x00000005 (0000ms, 0687ms total)
T0658 001:087 JLINK_Go() -- CPU_WriteMem(4 bytes @ 0xE0002008) -- CPU_WriteMem(4 bytes @ 0xE000200C) -- CPU_WriteMem(4 bytes @ 0xE0002010) -- CPU_WriteMem(4 bytes @ 0xE0002014) -- CPU_WriteMem(4 bytes @ 0xE0002018) -- CPU_WriteMem(4 bytes @ 0xE000201C) (0006ms, 0693ms total)
T0658 001:093 JLINK_IsHalted()  returns FALSE (0001ms, 0694ms total)
T0658 001:097 JLINK_IsHalted()  returns FALSE (0000ms, 0693ms total)
T0658 001:098 JLINK_IsHalted()  returns FALSE (0000ms, 0693ms total)
T0658 001:099 JLINK_IsHalted()  returns FALSE (0000ms, 0693ms total)
T0658 001:100 JLINK_IsHalted()  returns FALSE (0000ms, 0693ms total)
T0658 001:101 JLINK_IsHalted()  returns FALSE (0000ms, 0693ms total)
T0658 001:102 JLINK_IsHalted()  returns FALSE (0000ms, 0693ms total)
T0658 001:103 JLINK_IsHalted()  returns FALSE (0000ms, 0693ms total)
T0658 001:104 JLINK_IsHalted()  returns FALSE (0000ms, 0693ms total)
T0658 001:105 JLINK_IsHalted()  returns FALSE (0000ms, 0693ms total)
T0658 001:106 JLINK_IsHalted()  returns FALSE (0000ms, 0693ms total)
T0658 001:107 JLINK_IsHalted()  returns FALSE (0000ms, 0693ms total)
T0658 001:108 JLINK_IsHalted()  returns FALSE (0000ms, 0693ms total)
T0658 001:109 JLINK_IsHalted()  returns FALSE (0000ms, 0693ms total)
T0658 001:110 JLINK_IsHalted()  returns FALSE (0000ms, 0693ms total)
T0658 001:111 JLINK_IsHalted()  returns FALSE (0000ms, 0693ms total)
T0658 001:112 JLINK_IsHalted()  returns FALSE (0000ms, 0693ms total)
T0658 001:113 JLINK_IsHalted()  returns FALSE (0000ms, 0693ms total)
T0658 001:114 JLINK_IsHalted()  returns FALSE (0000ms, 0693ms total)
T0658 001:115 JLINK_IsHalted()  returns FALSE (0000ms, 0693ms total)
T0658 001:116 JLINK_IsHalted()  returns FALSE (0000ms, 0693ms total)
T0658 001:117 JLINK_IsHalted()  returns FALSE (0000ms, 0693ms total)
T0658 001:118 JLINK_IsHalted()  returns FALSE (0000ms, 0693ms total)
T0658 001:119 JLINK_IsHalted()  returns FALSE (0000ms, 0693ms total)
T0658 001:120 JLINK_IsHalted()  returns FALSE (0000ms, 0693ms total)
T0658 001:121 JLINK_IsHalted()  returns FALSE (0000ms, 0693ms total)
T0658 001:122 JLINK_IsHalted()  returns FALSE (0000ms, 0693ms total)
T0658 001:123 JLINK_IsHalted()  returns FALSE (0000ms, 0693ms total)
T0658 001:124 JLINK_IsHalted()  returns FALSE (0000ms, 0693ms total)
T0658 001:125 JLINK_IsHalted()  returns FALSE (0000ms, 0693ms total)
T0658 001:126 JLINK_IsHalted()  returns FALSE (0000ms, 0693ms total)
T0658 001:127 JLINK_IsHalted()  returns FALSE (0000ms, 0693ms total)
T0658 001:154 JLINK_IsHalted()  returns FALSE (0001ms, 0694ms total)
T0658 001:156 JLINK_IsHalted()  returns FALSE (0001ms, 0694ms total)
T0658 001:158 JLINK_IsHalted()  returns FALSE (0000ms, 0693ms total)
T0658 001:161 JLINK_IsHalted()  returns FALSE (0000ms, 0693ms total)
T0658 001:163 JLINK_IsHalted()  returns FALSE (0001ms, 0695ms total)
T0658 001:165 JLINK_IsHalted()  returns FALSE (0000ms, 0694ms total)
T0658 001:166 JLINK_IsHalted()  returns FALSE (0000ms, 0694ms total)
T0658 001:167 JLINK_IsHalted()  returns FALSE (0000ms, 0694ms total)
T0658 001:168 JLINK_IsHalted()  returns FALSE (0000ms, 0694ms total)
T0658 001:169 JLINK_IsHalted()  returns FALSE (0000ms, 0694ms total)
T0658 001:170 JLINK_IsHalted()  returns FALSE (0000ms, 0694ms total)
T0658 001:171 JLINK_IsHalted()  returns FALSE (0000ms, 0694ms total)
T0658 001:172 JLINK_IsHalted()  returns FALSE (0000ms, 0694ms total)
T0658 001:173 JLINK_IsHalted()  returns FALSE (0000ms, 0694ms total)
T0658 001:174 JLINK_IsHalted()  returns FALSE (0000ms, 0694ms total)
T0658 001:175 JLINK_IsHalted()  returns FALSE (0000ms, 0694ms total)
T0658 001:176 JLINK_IsHalted()  returns FALSE (0000ms, 0694ms total)
T0658 001:177 JLINK_IsHalted()  returns FALSE (0000ms, 0694ms total)
T0658 001:178 JLINK_IsHalted()  returns FALSE (0000ms, 0694ms total)
T0658 001:179 JLINK_IsHalted()  returns FALSE (0000ms, 0694ms total)
T0658 001:180 JLINK_IsHalted()  returns FALSE (0000ms, 0694ms total)
T0658 001:181 JLINK_IsHalted()  returns FALSE (0000ms, 0694ms total)
T0658 001:182 JLINK_IsHalted()  returns FALSE (0000ms, 0694ms total)
T0658 001:183 JLINK_IsHalted()  returns FALSE (0000ms, 0694ms total)
T0658 001:184 JLINK_IsHalted()  returns FALSE (0000ms, 0694ms total)
T0658 001:185 JLINK_IsHalted()  returns FALSE (0000ms, 0694ms total)
T0658 001:186 JLINK_IsHalted()  returns FALSE (0000ms, 0694ms total)
T0658 001:187 JLINK_IsHalted()  returns FALSE (0000ms, 0694ms total)
T0658 001:188 JLINK_IsHalted()  returns FALSE (0000ms, 0694ms total)
T0658 001:189 JLINK_IsHalted()  returns FALSE (0000ms, 0694ms total)
T0658 001:190 JLINK_IsHalted()  returns FALSE (0000ms, 0694ms total)
T0658 001:191 JLINK_IsHalted()  returns FALSE (0001ms, 0695ms total)
T0658 001:193 JLINK_IsHalted()  returns TRUE (0002ms, 0696ms total)
T0658 001:195 JLINK_ReadReg(R15)  returns 0x10000000 (0000ms, 0694ms total)
T0658 001:195 JLINK_ClrBPEx(BPHandle = 0x00000005)  returns 0x00 (0000ms, 0694ms total)
T0658 001:195 JLINK_ReadReg(R0)  returns 0x00000000 (0000ms, 0694ms total)
T0658 001:196 JLINK_WriteReg(R0, 0x00002000)  returns 0x00 (0000ms, 0694ms total)
T0658 001:196 JLINK_WriteReg(R1, 0x00001000)  returns 0x00 (0000ms, 0694ms total)
T0658 001:196 JLINK_WriteReg(R2, 0x000000FF)  returns 0x00 (0000ms, 0694ms total)
T0658 001:196 JLINK_WriteReg(R3, 0x00000000)  returns 0x00 (0000ms, 0694ms total)
T0658 001:196 JLINK_WriteReg(R4, 0x00000000)  returns 0x00 (0000ms, 0694ms total)
T0658 001:196 JLINK_WriteReg(R5, 0x00000000)  returns 0x00 (0000ms, 0694ms total)
T0658 001:196 JLINK_WriteReg(R6, 0x00000000)  returns 0x00 (0000ms, 0694ms total)
T0658 001:196 JLINK_WriteReg(R7, 0x00000000)  returns 0x00 (0000ms, 0694ms total)
T0658 001:196 JLINK_WriteReg(R8, 0x00000000)  returns 0x00 (0000ms, 0694ms total)
T0658 001:196 JLINK_WriteReg(R9, 0x100001DC)  returns 0x00 (0000ms, 0694ms total)
T0658 001:196 JLINK_WriteReg(R10, 0x00000000)  returns 0x00 (0000ms, 0694ms total)
T0658 001:196 JLINK_WriteReg(R11, 0x00000000)  returns 0x00 (0000ms, 0694ms total)
T0658 001:196 JLINK_WriteReg(R12, 0x00000000)  returns 0x00 (0000ms, 0694ms total)
T0658 001:196 JLINK_WriteReg(R13, 0x10001000)  returns 0x00 (0000ms, 0694ms total)
T0658 001:196 JLINK_WriteReg(R14, 0x10000001)  returns 0x00 (0000ms, 0694ms total)
T0658 001:196 JLINK_WriteReg(R15, 0x10000020)  returns 0x00 (0000ms, 0694ms total)
T0658 001:196 JLINK_WriteReg(XPSR, 0x01000000)  returns 0x00 (0000ms, 0694ms total)
T0658 001:196 JLINK_WriteReg(MSP, 0x10001000)  returns 0x00 (0000ms, 0694ms total)
T0658 001:196 JLINK_WriteReg(PSP, 0x10001000)  returns 0x00 (0000ms, 0694ms total)
T0658 001:196 JLINK_WriteReg(CFBP, 0x00000000)  returns 0x00 (0000ms, 0694ms total)
T0658 001:196 JLINK_SetBPEx(Addr = 0x10000000, Type = 0xFFFFFFF2)  returns 0x00000006 (0000ms, 0694ms total)
T0658 001:196 JLINK_Go() -- CPU_WriteMem(4 bytes @ 0xE0002008) -- CPU_WriteMem(4 bytes @ 0xE000200C) -- CPU_WriteMem(4 bytes @ 0xE0002010) -- CPU_WriteMem(4 bytes @ 0xE0002014) -- CPU_WriteMem(4 bytes @ 0xE0002018) -- CPU_WriteMem(4 bytes @ 0xE000201C) (0006ms, 0700ms total)
T0658 001:202 JLINK_IsHalted()  returns TRUE (0003ms, 0703ms total)
T0658 001:205 JLINK_ReadReg(R15)  returns 0x10000000 (0000ms, 0700ms total)
T0658 001:205 JLINK_ClrBPEx(BPHandle = 0x00000006)  returns 0x00 (0000ms, 0700ms total)
T0658 001:205 JLINK_ReadReg(R0)  returns 0x00000001 (0000ms, 0700ms total)
T0658 001:205 JLINK_WriteReg(R0, 0x00002000)  returns 0x00 (0000ms, 0700ms total)
T0658 001:205 JLINK_WriteReg(R1, 0x00001000)  returns 0x00 (0000ms, 0700ms total)
T0658 001:205 JLINK_WriteReg(R2, 0x000000FF)  returns 0x00 (0000ms, 0700ms total)
T0658 001:205 JLINK_WriteReg(R3, 0x00000000)  returns 0x00 (0001ms, 0701ms total)
T0658 001:206 JLINK_WriteReg(R4, 0x00000000)  returns 0x00 (0000ms, 0701ms total)
T0658 001:206 JLINK_WriteReg(R5, 0x00000000)  returns 0x00 (0000ms, 0701ms total)
T0658 001:206 JLINK_WriteReg(R6, 0x00000000)  returns 0x00 (0000ms, 0701ms total)
T0658 001:206 JLINK_WriteReg(R7, 0x00000000)  returns 0x00 (0000ms, 0701ms total)
T0658 001:206 JLINK_WriteReg(R8, 0x00000000)  returns 0x00 (0000ms, 0701ms total)
T0658 001:206 JLINK_WriteReg(R9, 0x100001DC)  returns 0x00 (0000ms, 0701ms total)
T0658 001:206 JLINK_WriteReg(R10, 0x00000000)  returns 0x00 (0000ms, 0701ms total)
T0658 001:206 JLINK_WriteReg(R11, 0x00000000)  returns 0x00 (0000ms, 0701ms total)
T0658 001:206 JLINK_WriteReg(R12, 0x00000000)  returns 0x00 (0000ms, 0701ms total)
T0658 001:206 JLINK_WriteReg(R13, 0x10001000)  returns 0x00 (0000ms, 0701ms total)
T0658 001:206 JLINK_WriteReg(R14, 0x10000001)  returns 0x00 (0000ms, 0701ms total)
T0658 001:206 JLINK_WriteReg(R15, 0x10000110)  returns 0x00 (0000ms, 0701ms total)
T0658 001:206 JLINK_WriteReg(XPSR, 0x01000000)  returns 0x00 (0000ms, 0701ms total)
T0658 001:206 JLINK_WriteReg(MSP, 0x10001000)  returns 0x00 (0000ms, 0701ms total)
T0658 001:206 JLINK_WriteReg(PSP, 0x10001000)  returns 0x00 (0000ms, 0701ms total)
T0658 001:206 JLINK_WriteReg(CFBP, 0x00000000)  returns 0x00 (0000ms, 0701ms total)
T0658 001:206 JLINK_SetBPEx(Addr = 0x10000000, Type = 0xFFFFFFF2)  returns 0x00000007 (0000ms, 0701ms total)
T0658 001:206 JLINK_Go() -- CPU_WriteMem(4 bytes @ 0xE0002008) -- CPU_WriteMem(4 bytes @ 0xE000200C) -- CPU_WriteMem(4 bytes @ 0xE0002010) -- CPU_WriteMem(4 bytes @ 0xE0002014) -- CPU_WriteMem(4 bytes @ 0xE0002018) -- CPU_WriteMem(4 bytes @ 0xE000201C) (0006ms, 0707ms total)
T0658 001:212 JLINK_IsHalted()  returns FALSE (0000ms, 0707ms total)
T0658 001:213 JLINK_IsHalted()  returns FALSE (0000ms, 0707ms total)
T0658 001:214 JLINK_IsHalted()  returns FALSE (0000ms, 0707ms total)
T0658 001:215 JLINK_IsHalted()  returns FALSE (0000ms, 0707ms total)
T0658 001:216 JLINK_IsHalted()  returns FALSE (0000ms, 0707ms total)
T0658 001:217 JLINK_IsHalted()  returns FALSE (0000ms, 0707ms total)
T0658 001:218 JLINK_IsHalted()  returns FALSE (0000ms, 0707ms total)
T0658 001:219 JLINK_IsHalted()  returns FALSE (0000ms, 0707ms total)
T0658 001:220 JLINK_IsHalted()  returns FALSE (0000ms, 0707ms total)
T0658 001:221 JLINK_IsHalted()  returns FALSE (0000ms, 0707ms total)
T0658 001:222 JLINK_IsHalted()  returns FALSE (0000ms, 0707ms total)
T0658 001:223 JLINK_IsHalted()  returns FALSE (0000ms, 0707ms total)
T0658 001:224 JLINK_IsHalted()  returns FALSE (0000ms, 0707ms total)
T0658 001:225 JLINK_IsHalted()  returns FALSE (0000ms, 0707ms total)
T0658 001:226 JLINK_IsHalted()  returns FALSE (0000ms, 0707ms total)
T0658 001:227 JLINK_IsHalted()  returns FALSE (0000ms, 0707ms total)
T0658 001:228 JLINK_IsHalted()  returns FALSE (0000ms, 0707ms total)
T0658 001:229 JLINK_IsHalted()  returns FALSE (0000ms, 0707ms total)
T0658 001:230 JLINK_IsHalted()  returns FALSE (0000ms, 0707ms total)
T0658 001:231 JLINK_IsHalted()  returns FALSE (0000ms, 0707ms total)
T0658 001:232 JLINK_IsHalted()  returns FALSE (0000ms, 0707ms total)
T0658 001:233 JLINK_IsHalted()  returns FALSE (0000ms, 0707ms total)
T0658 001:234 JLINK_IsHalted()  returns FALSE (0000ms, 0707ms total)
T0658 001:235 JLINK_IsHalted()  returns FALSE (0000ms, 0707ms total)
T0658 001:236 JLINK_IsHalted()  returns FALSE (0000ms, 0707ms total)
T0658 001:237 JLINK_IsHalted()  returns FALSE (0000ms, 0707ms total)
T0658 001:274 JLINK_IsHalted()  returns FALSE (0001ms, 0708ms total)
T0658 001:276 JLINK_IsHalted()  returns FALSE (0000ms, 0707ms total)
T0658 001:278 JLINK_IsHalted()  returns FALSE (0001ms, 0708ms total)
T0658 001:280 JLINK_IsHalted()  returns FALSE (0000ms, 0707ms total)
T0658 001:282 JLINK_IsHalted()  returns FALSE (0000ms, 0707ms total)
T0658 001:283 JLINK_IsHalted()  returns FALSE (0000ms, 0707ms total)
T0658 001:284 JLINK_IsHalted()  returns FALSE (0000ms, 0707ms total)
T0658 001:285 JLINK_IsHalted()  returns FALSE (0001ms, 0708ms total)
T0658 001:287 JLINK_IsHalted()  returns FALSE (0000ms, 0707ms total)
T0658 001:288 JLINK_IsHalted()  returns FALSE (0000ms, 0707ms total)
T0658 001:289 JLINK_IsHalted()  returns FALSE (0001ms, 0708ms total)
